 (1745513367.890586)  can0  30A   [8]  03 10 27 05 02 44 28 00
 (1745513367.890818)  can0  0A0   [8]  10 27 05 02 64 18 00 64
 (1745513367.891057)  can0  1A2   [8]  01 00 88 00 00 88 14 08
 (1745513367.891297)  can0  2B1   [8]  43 44 00 00 03 01 00 00
 (1745513367.891546)  can0  154   [8]  01 00 05 00 00 00 00 00
 (1745513367.891784)  can0  160   [8]  09 10 27 58 1B 00 00 00
 (1745513367.892026)  can0  301   [8]  60 01 40 81 00 02 00 C0
 (1745513367.892271)  can0  304   [8]  20 03 32 00 5E 01 00 C0
 (1745513367.892511)  can0  303   [8]  0B 00 20 03 00 00 28 C0
 (1745513367.892762)  can0  314   [8]  01 00 00 00 00 00 00 00
 (1745513367.895127)  can0  142   [8]  00 00 01 05 00 28 07 2B
 (1745513367.900130)  can0  143   [8]  00 00 00 00 05 B5 58 E8
 (1745513367.901275)  can0  010   [8]  80 1A 06 71 02 00 4B 00
 (1745513367.901518)  can0  060   [8]  08 02 10 27 4F 80 00 00
 (1745513367.904669)  can0  18F   [8]  01 00 00 F8 08 00 28 00
 (1745513367.910624)  can0  30A   [8]  03 10 27 05 02 44 28 00
 (1745513367.910850)  can0  0A0   [8]  10 27 05 02 64 18 00 64
 (1745513367.911088)  can0  1A2   [8]  01 00 88 00 00 88 14 08
 (1745513367.911328)  can0  2B1   [8]  43 44 00 00 03 01 00 00
 (1745513367.911577)  can0  154   [8]  01 00 05 00 00 00 00 00
 (1745513367.911814)  can0  160   [8]  09 10 27 58 1B 00 00 00
 (1745513367.912064)  can0  301   [8]  60 01 40 81 00 02 00 D0
 (1745513367.912303)  can0  304   [8]  20 03 32 00 5E 01 00 D0
 (1745513367.912542)  can0  303   [8]  0B 00 20 03 00 00 28 D0
 (1745513367.912790)  can0  314   [8]  01 00 00 00 00 00 00 00
 (1745513367.915123)  can0  142   [8]  00 00 01 05 00 28 08 24
 (1745513367.920154)  can0  143   [8]  00 00 00 00 05 B4 58 E9
 (1745513367.921278)  can0  010   [8]  80 1A 06 71 02 00 4B 00
 (1745513367.921518)  can0  060   [8]  08 02 10 27 4F 80 00 00
 (1745513367.924601)  can0  18F   [8]  01 00 00 F7 CC 00 28 00
 (1745513367.930609)  can0  30A   [8]  03 10 27 05 02 44 28 00
 (1745513367.930840)  can0  0A0   [8]  10 27 05 02 64 18 00 64
 (1745513367.931077)  can0  1A2   [8]  01 00 88 00 00 88 14 09
 (1745513367.931317)  can0  2B1   [8]  43 44 00 00 03 01 00 00
 (1745513367.931566)  can0  154   [8]  01 00 05 00 00 00 00 00
 (1745513367.931803)  can0  160   [8]  09 10 27 58 1B 00 00 00
 (1745513367.932043)  can0  301   [8]  60 01 40 81 00 02 00 E0
 (1745513367.932293)  can0  304   [8]  20 03 32 00 5E 01 00 E0
 (1745513367.932532)  can0  303   [8]  0B 00 20 03 00 00 28 E0
 (1745513367.932781)  can0  314   [8]  01 00 00 00 00 00 00 00
 (1745513367.935124)  can0  142   [8]  00 00 01 05 00 28 09 25
 (1745513367.940127)  can0  143   [8]  00 00 00 00 05 B4 58 E9
 (1745513367.941276)  can0  010   [8]  80 1A 06 71 02 00 4B 00
 (1745513367.941520)  can0  060   [8]  08 02 10 27 4F 80 00 00
 (1745513367.944602)  can0  18F   [8]  01 00 00 F7 CC 00 28 00
 (1745513367.949524)  can0  612   [8]  40 05 61 01 18 01 00 00
 (1745513367.949755)  can0  712   [8]  33 D0 87 82 01 00 00 05
 (1745513367.950840)  can0  30A   [8]  03 10 27 05 02 44 28 00
 (1745513367.951088)  can0  0A0   [8]  10 27 05 02 64 18 00 64
 (1745513367.951318)  can0  1A2   [8]  01 00 88 00 00 88 14 09
 (1745513367.951571)  can0  2B1   [8]  43 44 00 00 03 01 00 00
 (1745513367.951807)  can0  154   [8]  01 00 05 00 00 00 00 00
 (1745513367.952044)  can0  160   [8]  09 10 27 58 1B 00 00 00
 (1745513367.952285)  can0  301   [8]  60 01 40 81 00 02 00 F0
 (1745513367.952528)  can0  304   [8]  20 03 32 00 5E 01 00 F0
 (1745513367.952776)  can0  303   [8]  0B 00 20 03 00 00 28 F0
 (1745513367.953019)  can0  314   [8]  01 00 00 00 00 00 00 00
 (1745513367.955119)  can0  142   [8]  00 00 01 05 00 28 0A 26
 (1745513367.960130)  can0  143   [8]  00 00 00 00 05 B5 58 E8
 (1745513367.961276)  can0  010   [8]  80 1A 06 71 02 00 4B 00
 (1745513367.961526)  can0  060   [8]  08 02 10 27 4F 80 00 00
 (1745513367.964668)  can0  18F   [8]  01 00 00 F7 54 00 28 00
 (1745513367.970585)  can0  30A   [8]  03 10 27 05 02 44 28 00
 (1745513367.970815)  can0  0A0   [8]  10 27 05 02 64 18 00 64
 (1745513367.971058)  can0  1A2   [8]  01 00 88 00 00 88 14 09
 (1745513367.971291)  can0  2B1   [8]  43 44 00 00 03 01 00 00
 (1745513367.971539)  can0  154   [8]  01 00 05 00 00 00 00 00
 (1745513367.971778)  can0  160   [8]  09 10 27 58 1B 00 00 00
 (1745513367.972019)  can0  301   [8]  60 01 40 81 00 02 00 00
 (1745513367.972263)  can0  304   [8]  20 03 32 00 5E 01 00 00
 (1745513367.972511)  can0  303   [8]  0B 00 20 03 00 00 28 00
 (1745513367.972758)  can0  314   [8]  01 00 00 00 00 00 00 00
 (1745513367.975278)  can0  142   [8]  00 00 01 05 00 28 0B 27
 (1745513367.980199)  can0  143   [8]  00 00 00 00 05 B4 58 E9
 (1745513367.981283)  can0  010   [8]  80 1A 06 71 02 00 4B 00
 (1745513367.981520)  can0  060   [8]  08 02 10 27 4F 80 00 00
 (1745513367.984700)  can0  18F   [8]  01 00 00 F7 90 00 28 00
 (1745513367.990573)  can0  30A   [8]  03 10 27 05 02 44 28 00
 (1745513367.990918)  can0  0A0   [8]  10 27 05 02 64 18 00 64
 (1745513367.991052)  can0  1A2   [8]  01 00 88 00 00 88 14 09
 (1745513367.991292)  can0  2B1   [8]  43 44 00 00 03 01 00 00
 (1745513367.991540)  can0  154   [8]  01 00 05 00 00 00 00 00
 (1745513367.991778)  can0  160   [8]  09 10 27 58 1B 00 00 00
 (1745513367.992026)  can0  301   [8]  60 01 40 81 00 02 00 10
 (1745513367.992259)  can0  304   [8]  20 03 32 00 5E 01 00 10
 (1745513367.992505)  can0  303   [8]  0B 00 20 03 00 00 28 10
 (1745513367.992755)  can0  314   [8]  01 00 00 00 00 00 00 00
 (1745513367.995128)  can0  142   [8]  00 00 01 05 00 28 0C 20
 (1745513368.000157)  can0  143   [8]  00 00 00 00 05 B5 58 E8
 (1745513368.001281)  can0  010   [8]  80 1A 06 71 02 00 4B 00
 (1745513368.001521)  can0  060   [8]  08 02 10 27 4F 80 00 00
 (1745513368.004660)  can0  18F   [8]  01 00 00 F7 54 00 28 00
 (1745513368.010573)  can0  30A   [8]  03 10 27 05 02 44 28 00
 (1745513368.010823)  can0  0A0   [8]  10 27 05 02 64 18 00 64
 (1745513368.011050)  can0  1A2   [8]  01 00 88 00 00 88 14 09
 (1745513368.011293)  can0  2B1   [8]  43 44 00 00 03 01 00 00
 (1745513368.011539)  can0  154   [8]  01 00 05 00 00 00 00 00
 (1745513368.011777)  can0  160   [8]  09 10 27 58 1B 00 00 00
 (1745513368.012019)  can0  301   [8]  60 01 40 81 00 02 00 20
 (1745513368.012312)  can0  304   [8]  20 03 32 00 5E 01 00 20
 (1745513368.012512)  can0  303   [8]  0B 00 20 03 00 00 28 20
 (1745513368.012872)  can0  314   [8]  01 00 00 00 00 00 00 00
 (1745513368.015123)  can0  142   [8]  00 00 01 05 00 28 0D 21
 (1745513368.020137)  can0  143   [8]  00 00 00 00 05 B5 58 E8
 (1745513368.021281)  can0  010   [8]  80 1A 06 71 02 00 4B 00
 (1745513368.021524)  can0  060   [8]  08 02 10 27 4F 80 00 00
 (1745513368.024605)  can0  18F   [8]  01 00 00 F7 90 00 28 00
 (1745513368.030582)  can0  30A   [8]  03 10 27 05 02 44 28 00
 (1745513368.030816)  can0  0A0   [8]  10 27 05 02 64 18 00 64
 (1745513368.031061)  can0  1A2   [8]  01 00 87 00 00 88 14 0A
 (1745513368.031295)  can0  2B1   [8]  43 44 00 00 03 01 00 00
 (1745513368.031540)  can0  154   [8]  01 00 05 00 00 00 00 00
 (1745513368.031778)  can0  160   [8]  09 10 27 58 1B 00 00 00
 (1745513368.032023)  can0  301   [8]  60 01 40 81 00 02 00 30
 (1745513368.032267)  can0  304   [8]  20 03 32 00 5E 01 00 30
 (1745513368.032511)  can0  303   [8]  0B 00 20 03 00 00 28 30
 (1745513368.032761)  can0  314   [8]  01 00 00 00 00 00 00 00
 (1745513368.035124)  can0  142   [8]  00 00 01 05 00 28 0E 22
 (1745513368.040135)  can0  143   [8]  00 00 00 00 05 B5 58 E8
 (1745513368.041281)  can0  010   [8]  80 1A 06 71 02 00 4B 00
 (1745513368.041524)  can0  060   [8]  08 02 10 27 4F 80 00 00
 (1745513368.044693)  can0  18F   [8]  01 00 00 F7 54 00 28 00
 (1745513368.050600)  can0  30A   [8]  03 10 27 05 02 44 28 00
 (1745513368.050832)  can0  0A0   [8]  10 27 05 02 64 18 00 64
 (1745513368.051071)  can0  1A2   [8]  01 00 87 00 00 88 14 0A
 (1745513368.051311)  can0  2B1   [8]  43 44 00 00 03 01 00 00
 (1745513368.051558)  can0  154   [8]  01 00 05 00 00 00 00 00
 (1745513368.051796)  can0  160   [8]  09 10 27 58 1B 00 00 00
 (1745513368.052116)  can0  301   [8]  60 01 40 81 00 02 00 40
 (1745513368.052281)  can0  304   [8]  20 03 32 00 5E 01 00 40
 (1745513368.052523)  can0  303   [8]  0B 00 20 03 00 00 28 40
 (1745513368.052773)  can0  314   [8]  01 00 00 00 00 00 00 00
 (1745513368.053011)  can0  612   [8]  40 05 61 01 18 01 00 00
 (1745513368.053264)  can0  712   [8]  33 D0 87 82 01 00 00 05
 (1745513368.055124)  can0  142   [8]  00 00 01 05 00 28 0F 23
 (1745513368.060134)  can0  143   [8]  00 00 00 00 05 B5 58 E8
 (1745513368.061282)  can0  010   [8]  80 1A 06 71 02 00 4B 00
 (1745513368.061525)  can0  060   [8]  08 02 10 27 4F 80 00 00
 (1745513368.064662)  can0  18F   [8]  01 00 00 F7 18 00 28 00
 (1745513368.070685)  can0  30A   [8]  03 10 27 05 02 44 28 00
 (1745513368.070811)  can0  0A0   [8]  10 27 05 02 64 18 00 64
 (1745513368.071050)  can0  1A2   [8]  01 00 87 00 00 88 14 0A
 (1745513368.071291)  can0  2B1   [8]  43 44 00 00 03 01 00 00
 (1745513368.071538)  can0  154   [8]  01 00 05 00 00 00 00 00
 (1745513368.071776)  can0  160   [8]  09 10 27 58 1B 00 00 00
 (1745513368.072019)  can0  301   [8]  60 01 40 81 00 02 00 50
 (1745513368.072260)  can0  304   [8]  20 03 32 00 5E 01 00 50
 (1745513368.072502)  can0  303   [8]  0B 00 20 03 00 00 28 50
 (1745513368.072753)  can0  314   [8]  01 00 00 00 00 00 00 00
 (1745513368.075128)  can0  142   [8]  00 00 01 05 00 28 00 2C
 (1745513368.080135)  can0  143   [8]  00 00 00 00 05 B5 58 E8
 (1745513368.081286)  can0  010   [8]  80 1A 06 71 02 00 4B 00
 (1745513368.081534)  can0  060   [8]  08 02 10 27 4F 80 00 00
 (1745513368.084702)  can0  18F   [8]  01 00 00 F6 A0 00 28 00
 (1745513368.090606)  can0  30A   [8]  03 10 27 05 02 44 28 00
 (1745513368.090813)  can0  0A0   [8]  10 27 05 02 64 18 00 64
 (1745513368.091069)  can0  1A2   [8]  01 00 87 00 00 88 14 0A
 (1745513368.091292)  can0  2B1   [8]  43 44 00 00 03 01 00 00
 (1745513368.091540)  can0  154   [8]  01 00 05 00 00 00 00 00
 (1745513368.091777)  can0  160   [8]  09 10 27 58 1B 00 00 00
 (1745513368.092033)  can0  301   [8]  60 01 40 81 00 02 00 60
 (1745513368.092269)  can0  304   [8]  20 03 32 00 5E 01 00 60
 (1745513368.092511)  can0  303   [8]  0B 00 20 03 00 00 28 60
 (1745513368.092761)  can0  314   [8]  01 00 00 00 00 00 00 00
 (1745513368.095130)  can0  142   [8]  00 00 01 05 00 28 01 2D
 (1745513368.100136)  can0  143   [8]  00 00 00 00 05 B5 58 E8
 (1745513368.101286)  can0  010   [8]  80 1A 06 71 02 00 4B 00
 (1745513368.101558)  can0  060   [8]  08 02 10 27 4F 80 00 00
 (1745513368.104620)  can0  18F   [8]  01 00 00 F6 DC 00 28 00
 (1745513368.110548)  can0  30A   [8]  03 10 27 05 02 44 28 00
 (1745513368.110772)  can0  0A0   [8]  10 27 05 02 64 18 00 64
 (1745513368.110999)  can0  1A2   [8]  01 00 87 00 00 88 14 0A
 (1745513368.111238)  can0  2B1   [8]  43 44 00 00 03 01 00 00
 (1745513368.111487)  can0  154   [8]  01 00 05 00 00 00 00 00
 (1745513368.111724)  can0  160   [8]  09 10 27 58 1B 00 00 00
 (1745513368.111972)  can0  301   [8]  60 01 40 81 00 02 00 70
 (1745513368.112206)  can0  304   [8]  20 03 32 00 5E 01 00 70
 (1745513368.112457)  can0  303   [8]  0B 00 20 03 00 00 28 70
 (1745513368.112700)  can0  314   [8]  01 00 00 00 00 00 00 00
 (1745513368.115129)  can0  142   [8]  00 00 01 05 00 28 02 2E
 (1745513368.120135)  can0  143   [8]  00 00 00 00 05 B5 58 E8
 (1745513368.121286)  can0  010   [8]  80 1A 06 71 02 00 4B 00
 (1745513368.121544)  can0  060   [8]  08 02 10 27 4F 80 00 00
 (1745513368.124710)  can0  18F   [8]  01 00 00 F6 DC 00 28 00
 (1745513368.130617)  can0  30A   [8]  03 10 27 05 02 44 28 00
 (1745513368.130846)  can0  0A0   [8]  10 27 05 02 64 18 00 64
 (1745513368.131083)  can0  1A2   [8]  01 00 87 00 00 88 14 0A
 (1745513368.131322)  can0  2B1   [8]  43 44 00 00 03 01 00 00
 (1745513368.131575)  can0  154   [8]  01 00 05 00 00 00 00 00
 (1745513368.131808)  can0  160   [8]  09 10 27 58 1B 00 00 00
 (1745513368.132048)  can0  301   [8]  60 01 40 81 00 02 00 80
 (1745513368.132292)  can0  304   [8]  20 03 32 00 5E 01 00 80
 (1745513368.132548)  can0  303   [8]  0B 00 20 03 00 00 28 80
 (1745513368.132786)  can0  314   [8]  01 00 00 00 00 00 00 00
 (1745513368.135130)  can0  142   [8]  00 00 01 05 00 28 03 2F
 (1745513368.140137)  can0  143   [8]  00 00 00 00 05 B5 58 E8
 (1745513368.141288)  can0  010   [8]  80 1A 06 71 02 00 4B 00
 (1745513368.141532)  can0  060   [8]  08 02 10 27 4F 80 00 00
 (1745513368.144612)  can0  18F   [8]  01 00 00 F6 28 00 28 00
 (1745513368.150606)  can0  30A   [8]  03 10 27 05 02 44 28 00
 (1745513368.150852)  can0  0A0   [8]  10 27 05 02 64 18 00 64
 (1745513368.151082)  can0  1A2   [8]  01 00 88 00 00 88 14 0B
 (1745513368.151314)  can0  2B1   [8]  43 44 00 00 03 01 00 00
 (1745513368.151563)  can0  154   [8]  01 00 05 00 00 00 00 00
 (1745513368.151800)  can0  160   [8]  09 10 27 58 1B 00 00 00
 (1745513368.152050)  can0  301   [8]  60 01 40 81 00 02 00 90
 (1745513368.152279)  can0  304   [8]  20 03 32 00 5E 01 00 90
 (1745513368.152521)  can0  303   [8]  0B 00 20 03 00 00 28 90
 (1745513368.152790)  can0  314   [8]  01 00 00 00 00 00 00 00
 (1745513368.153008)  can0  612   [8]  40 05 61 01 18 01 00 00
 (1745513368.153245)  can0  712   [8]  33 D0 87 82 01 00 00 05
 (1745513368.155128)  can0  142   [8]  00 00 01 05 00 28 04 28
 (1745513368.160140)  can0  143   [8]  00 00 00 00 05 B4 58 E9
 (1745513368.161290)  can0  010   [8]  80 1A 06 71 02 00 4B 00
 (1745513368.161533)  can0  060   [8]  08 02 10 27 4F 80 00 00
 (1745513368.164619)  can0  18F   [8]  01 00 00 F6 A0 00 28 00
 (1745513368.170592)  can0  30A   [8]  03 10 27 05 02 44 28 00
 (1745513368.170832)  can0  0A0   [8]  10 27 05 02 64 18 00 64
 (1745513368.171082)  can0  1A2   [8]  01 00 88 00 00 88 14 0B
 (1745513368.171309)  can0  2B1   [8]  43 44 00 00 03 01 00 00
 (1745513368.171558)  can0  154   [8]  01 00 05 00 00 00 00 00
 (1745513368.171796)  can0  160   [8]  09 10 27 58 1B 00 00 00
 (1745513368.172036)  can0  301   [8]  60 01 40 81 00 02 00 A0
 (1745513368.172278)  can0  304   [8]  20 03 32 00 5E 01 00 A0
 (1745513368.172520)  can0  303   [8]  0B 00 20 03 00 00 28 A0
 (1745513368.172770)  can0  314   [8]  01 00 00 00 00 00 00 00
 (1745513368.175129)  can0  142   [8]  00 00 01 05 00 28 05 29
 (1745513368.180142)  can0  143   [8]  00 00 00 00 05 B5 58 E8
 (1745513368.181305)  can0  010   [8]  80 1A 06 71 02 00 4B 00
 (1745513368.181534)  can0  060   [8]  08 02 10 27 4F 80 00 00
 (1745513368.184610)  can0  18F   [8]  01 00 00 F7 54 00 28 00
 (1745513368.190589)  can0  30A   [8]  03 10 27 05 02 44 28 00
 (1745513368.190809)  can0  0A0   [8]  10 27 05 02 64 18 00 64
 (1745513368.191047)  can0  1A2   [8]  01 00 88 00 00 88 14 0B
 (1745513368.191291)  can0  2B1   [8]  43 44 00 00 03 01 00 00
 (1745513368.191539)  can0  154   [8]  01 00 05 00 00 00 00 00
 (1745513368.191783)  can0  160   [8]  09 10 27 58 1B 00 00 00
 (1745513368.192019)  can0  301   [8]  60 01 40 81 00 02 00 B0
 (1745513368.192276)  can0  304   [8]  20 03 32 00 5E 01 00 B0
 (1745513368.192512)  can0  303   [8]  0B 00 20 03 00 00 28 B0
 (1745513368.192755)  can0  314   [8]  01 00 00 00 00 00 00 00
 (1745513368.195129)  can0  142   [8]  00 00 01 05 00 28 06 2A
 (1745513368.200139)  can0  143   [8]  00 00 00 00 05 B5 58 E8
 (1745513368.201290)  can0  010   [8]  80 1A 06 71 02 00 4B 00
 (1745513368.201536)  can0  060   [8]  08 02 10 27 4F 80 00 00
 (1745513368.204773)  can0  18F   [8]  01 00 00 F6 64 00 28 00
 (1745513368.210573)  can0  30A   [8]  03 10 27 05 02 44 28 00
 (1745513368.210809)  can0  0A0   [8]  10 27 05 02 64 18 00 64
 (1745513368.211047)  can0  1A2   [8]  01 00 88 00 00 88 14 0B
 (1745513368.211286)  can0  2B1   [8]  43 44 00 00 03 01 00 00
 (1745513368.211535)  can0  154   [8]  01 00 05 00 00 00 00 00
 (1745513368.211774)  can0  160   [8]  09 10 27 58 1B 00 00 00
 (1745513368.212046)  can0  301   [8]  60 01 40 81 00 02 00 C0
 (1745513368.212284)  can0  304   [8]  20 03 32 00 5E 01 00 C0
 (1745513368.212503)  can0  303   [8]  0B 00 20 03 00 00 28 C0
 (1745513368.212755)  can0  314   [8]  01 00 00 00 00 00 00 00
 (1745513368.215129)  can0  142   [8]  00 00 01 05 00 28 07 2B
 (1745513368.220138)  can0  143   [8]  00 00 00 00 05 B5 58 E8
 (1745513368.221293)  can0  010   [8]  80 1A 06 71 02 00 4B 00
 (1745513368.221537)  can0  060   [8]  08 02 10 27 4F 80 00 00
 (1745513368.224618)  can0  18F   [8]  01 00 00 F6 64 00 28 00
 (1745513368.230618)  can0  30A   [8]  03 10 27 05 02 44 28 00
 (1745513368.230820)  can0  0A0   [8]  10 27 05 02 64 18 00 64
 (1745513368.231049)  can0  1A2   [8]  01 00 88 00 00 88 14 0B
 (1745513368.231288)  can0  2B1   [8]  43 44 00 00 03 01 00 00
 (1745513368.231536)  can0  154   [8]  01 00 05 00 00 00 00 00
 (1745513368.231775)  can0  160   [8]  09 10 27 58 1B 00 00 00
 (1745513368.232015)  can0  301   [8]  60 01 40 81 00 02 00 D0
 (1745513368.232264)  can0  304   [8]  20 03 32 00 5E 01 00 D0
 (1745513368.232498)  can0  303   [8]  0B 00 20 03 00 00 28 D0
 (1745513368.232748)  can0  314   [8]  01 00 00 00 00 00 00 00
 (1745513368.235137)  can0  142   [8]  00 00 01 05 00 28 08 24
 (1745513368.240136)  can0  143   [8]  00 00 00 00 05 B4 58 E9
 (1745513368.241293)  can0  010   [8]  80 1A 06 71 02 00 4B 00
 (1745513368.241561)  can0  060   [8]  08 02 10 27 4F 80 00 00
 (1745513368.244621)  can0  18F   [8]  01 00 00 F6 A0 00 28 00
 (1745513368.250626)  can0  30A   [8]  03 10 27 05 02 44 28 00
 (1745513368.250862)  can0  0A0   [8]  10 27 05 02 64 18 00 64
 (1745513368.251105)  can0  1A2   [8]  01 00 88 00 00 88 14 0C
 (1745513368.251345)  can0  2B1   [8]  43 44 00 00 03 01 00 00
 (1745513368.251593)  can0  154   [8]  01 00 05 00 00 00 00 00
 (1745513368.251832)  can0  160   [8]  09 10 27 58 1B 00 00 00
 (1745513368.252073)  can0  301   [8]  60 01 40 81 00 02 00 E0
 (1745513368.252316)  can0  304   [8]  20 03 32 00 5E 01 00 E0
 (1745513368.252558)  can0  303   [8]  0B 00 20 03 00 00 28 E0
 (1745513368.252808)  can0  314   [8]  01 00 00 00 00 00 00 00
 (1745513368.253045)  can0  612   [8]  40 05 61 01 18 01 00 00
 (1745513368.253296)  can0  712   [8]  33 D0 87 82 01 00 00 05
 (1745513368.255135)  can0  142   [8]  00 00 01 05 00 28 09 25
 (1745513368.260138)  can0  143   [8]  00 00 00 00 05 B4 58 E9
 (1745513368.261296)  can0  010   [8]  80 1A 06 71 02 00 4B 00
 (1745513368.261559)  can0  060   [8]  08 02 10 27 4F 80 00 00
 (1745513368.264616)  can0  18F   [8]  01 00 00 F6 64 00 28 00
 (1745513368.270589)  can0  30A   [8]  03 10 27 05 02 44 28 00
 (1745513368.270832)  can0  0A0   [8]  10 27 05 02 64 18 00 64
 (1745513368.271075)  can0  1A2   [8]  01 00 88 00 00 88 14 0C
 (1745513368.271311)  can0  2B1   [8]  43 44 00 00 03 01 00 00
 (1745513368.271560)  can0  154   [8]  01 00 05 00 00 00 00 00
 (1745513368.271798)  can0  160   [8]  09 10 27 58 1B 00 00 00
 (1745513368.272037)  can0  301   [8]  60 01 40 81 00 02 00 F0
 (1745513368.272278)  can0  304   [8]  20 03 32 00 5E 01 00 F0
 (1745513368.272521)  can0  303   [8]  0B 00 20 03 00 00 28 F0
 (1745513368.272772)  can0  314   [8]  01 00 00 00 00 00 00 00
 (1745513368.275128)  can0  142   [8]  00 00 01 05 00 28 0A 26
 (1745513368.280152)  can0  143   [8]  00 00 00 00 05 B5 58 E8
 (1745513368.281295)  can0  010   [8]  80 1A 06 71 02 00 4B 00
 (1745513368.281555)  can0  060   [8]  08 02 10 27 4F 80 00 00
 (1745513368.284683)  can0  18F   [8]  01 00 00 F4 84 00 28 00
 (1745513368.290595)  can0  30A   [8]  03 10 27 05 02 44 28 00
 (1745513368.290818)  can0  0A0   [8]  10 27 05 02 64 18 00 64
 (1745513368.291050)  can0  1A2   [8]  01 00 88 00 00 88 14 0C
 (1745513368.291290)  can0  2B1   [8]  43 44 00 00 03 01 00 00
 (1745513368.291539)  can0  154   [8]  01 00 05 00 00 00 00 00
 (1745513368.291779)  can0  160   [8]  09 10 27 58 1B 00 00 00
 (1745513368.292019)  can0  301   [8]  60 01 40 81 00 02 00 00
 (1745513368.292269)  can0  304   [8]  20 03 32 00 5E 01 00 00
 (1745513368.292509)  can0  303   [8]  0B 00 20 03 00 00 28 00
 (1745513368.292773)  can0  314   [8]  01 00 00 00 00 00 00 00
 (1745513368.295138)  can0  142   [8]  00 00 01 05 00 28 0B 27
 (1745513368.300147)  can0  143   [8]  00 00 00 00 05 B5 58 E8
 (1745513368.301296)  can0  010   [8]  80 1A 06 71 02 00 4B 00
 (1745513368.301539)  can0  060   [8]  08 02 10 27 4F 80 00 00
 (1745513368.304624)  can0  18F   [8]  01 00 00 F6 28 00 28 00
 (1745513368.309641)  can0  30A   [8]  03 10 27 05 02 44 28 00
 (1745513368.309866)  can0  0A0   [8]  10 27 05 02 64 18 00 64
 (1745513368.310083)  can0  1A2   [8]  01 00 88 00 00 88 14 0C
 (1745513368.310331)  can0  2B1   [8]  43 44 00 00 03 01 00 00
 (1745513368.310572)  can0  154   [8]  01 00 05 00 00 00 00 00
 (1745513368.310809)  can0  160   [8]  09 10 27 58 1B 00 00 00
 (1745513368.311063)  can0  301   [8]  60 01 40 81 00 02 00 10
 (1745513368.311293)  can0  304   [8]  20 03 32 00 5E 01 00 10
 (1745513368.311539)  can0  303   [8]  0B 00 20 03 00 00 28 10
 (1745513368.311789)  can0  314   [8]  01 00 00 00 00 00 00 00
 (1745513368.315138)  can0  142   [8]  00 00 01 05 00 28 0C 20
 (1745513368.320144)  can0  143   [8]  00 00 00 00 05 B5 58 E8
 (1745513368.321311)  can0  010   [8]  80 1A 06 71 02 00 4B 00
 (1745513368.321549)  can0  060   [8]  08 02 10 27 4F 80 00 00
 (1745513368.324643)  can0  18F   [8]  01 00 00 F7 90 00 28 00
 (1745513368.330574)  can0  30A   [8]  03 10 27 05 02 44 28 00
 (1745513368.330806)  can0  0A0   [8]  10 27 05 02 64 18 00 64
 (1745513368.331049)  can0  1A2   [8]  01 00 88 00 00 88 14 0C
 (1745513368.331288)  can0  2B1   [8]  43 44 00 00 03 01 00 00
 (1745513368.331538)  can0  154   [8]  01 00 05 00 00 00 00 00
 (1745513368.331816)  can0  160   [8]  09 10 27 58 1B 00 00 00
 (1745513368.332017)  can0  301   [8]  60 01 40 81 00 02 00 20
 (1745513368.332264)  can0  304   [8]  20 03 32 00 5E 01 00 20
 (1745513368.332511)  can0  303   [8]  0B 00 20 03 00 00 28 20
 (1745513368.332760)  can0  314   [8]  01 00 00 00 00 00 00 00
 (1745513368.335137)  can0  142   [8]  00 00 01 05 00 28 0D 21
 (1745513368.340144)  can0  143   [8]  00 00 00 00 05 B4 58 E9
 (1745513368.341297)  can0  010   [8]  80 1A 06 71 02 00 4B 00
 (1745513368.341556)  can0  060   [8]  08 02 10 27 4F 80 00 00
 (1745513368.344713)  can0  18F   [8]  01 00 00 F7 54 00 28 00
 (1745513368.350556)  can0  30A   [8]  03 10 27 05 02 44 28 00
 (1745513368.350785)  can0  0A0   [8]  10 27 05 02 64 18 00 64
 (1745513368.351027)  can0  1A2   [8]  01 00 88 00 00 88 14 0C
 (1745513368.351267)  can0  2B1   [8]  43 44 00 00 03 01 00 00
 (1745513368.351516)  can0  154   [8]  01 00 05 00 00 00 00 00
 (1745513368.351755)  can0  160   [8]  09 10 27 58 1B 00 00 00
 (1745513368.351998)  can0  301   [8]  60 01 40 81 00 02 00 30
 (1745513368.352242)  can0  304   [8]  20 03 32 00 5E 01 00 30
 (1745513368.352487)  can0  303   [8]  0B 00 20 03 00 00 28 30
 (1745513368.352750)  can0  314   [8]  01 00 00 00 00 00 00 00
 (1745513368.352974)  can0  612   [8]  40 05 61 01 18 01 00 00
 (1745513368.353212)  can0  712   [8]  33 D0 87 82 01 00 00 05
 (1745513368.355137)  can0  142   [8]  00 00 01 05 00 28 0E 22
 (1745513368.360150)  can0  143   [8]  00 00 00 00 05 B4 58 E9
 (1745513368.361301)  can0  010   [8]  80 1A 06 71 02 00 4B 00
 (1745513368.361543)  can0  060   [8]  08 02 10 27 4F 80 00 00
 (1745513368.364723)  can0  18F   [8]  01 00 00 F6 A0 00 28 00
 (1745513368.370700)  can0  30A   [8]  03 10 27 05 02 44 28 00
 (1745513368.370824)  can0  0A0   [8]  10 27 05 02 64 18 00 64
 (1745513368.371072)  can0  1A2   [8]  01 00 88 00 00 88 14 0D
 (1745513368.371307)  can0  2B1   [8]  43 44 00 00 03 01 00 00
 (1745513368.371554)  can0  154   [8]  01 00 05 00 00 00 00 00
 (1745513368.371793)  can0  160   [8]  09 10 27 58 1B 00 00 00
 (1745513368.372035)  can0  301   [8]  60 01 40 81 00 02 00 40
 (1745513368.372280)  can0  304   [8]  20 03 32 00 5E 01 00 40
 (1745513368.372522)  can0  303   [8]  0B 00 20 03 00 00 28 40
 (1745513368.372770)  can0  314   [8]  01 00 00 00 00 00 00 00
 (1745513368.375137)  can0  142   [8]  00 00 01 05 00 28 0F 23
 (1745513368.380146)  can0  143   [8]  00 00 00 00 05 B5 58 E8
 (1745513368.381301)  can0  010   [8]  80 1A 06 71 02 00 4B 00
 (1745513368.381540)  can0  060   [8]  08 02 10 27 4F 80 00 00
 (1745513368.384648)  can0  18F   [8]  01 00 00 F6 A0 00 28 00
 (1745513368.390582)  can0  30A   [8]  03 10 27 05 02 44 28 00
 (1745513368.390823)  can0  0A0   [8]  10 27 05 02 64 18 00 64
 (1745513368.391061)  can0  1A2   [8]  01 00 88 00 00 88 14 0D
 (1745513368.391317)  can0  2B1   [8]  43 44 00 00 03 01 00 00
 (1745513368.391554)  can0  154   [8]  01 00 05 00 00 00 00 00
 (1745513368.391795)  can0  160   [8]  09 10 27 58 1B 00 00 00
 (1745513368.392029)  can0  301   [8]  60 01 40 81 00 02 00 50
 (1745513368.392271)  can0  304   [8]  20 03 32 00 5E 01 00 50
 (1745513368.392521)  can0  303   [8]  0B 00 20 03 00 00 28 50
 (1745513368.392784)  can0  314   [8]  01 00 00 00 00 00 00 00
 (1745513368.395139)  can0  142   [8]  00 00 01 05 00 28 00 2C
